HEADER
"PSFversion" "1.00"
"simulator" "spectre"
"version" "20.1.0.068"
"date" "1:19:54 PM, Sun Mar 21, 2021"
"design" ""
"analysis type" "ac"
"analysis name" "impedance"
"analysis description" "AC Analysis `impedance': freq = (100 Hz -> 1 GHz)"
"xVecSorted" "ascending"
"tolerance.relative" 0.00100000
"start" 100.000
"stop" 1.00000e+09
"operating point producer" "impedance"
TYPE
"sweep" FLOAT DOUBLE PROP(
"key" "sweep"
)
"V" COMPLEX DOUBLE PROP(
"units" "V"
"key" "node"
"tolerance" 1.00000e-06
)
"I" COMPLEX DOUBLE PROP(
"units" "A"
"key" "branch"
"tolerance" 1.00000e-12
)
"MMF" COMPLEX DOUBLE PROP(
"units" "A*turn"
"key" "node"
"tolerance" 1.00000e-12
)
"Wb" COMPLEX DOUBLE PROP(
"units" "Wb"
"key" "node"
"tolerance" 1.00000e-09
)
"Temp" COMPLEX DOUBLE PROP(
"units" "C"
"key" "node"
"tolerance" 0.000100000
)
"Pwr" COMPLEX DOUBLE PROP(
"units" "W"
"key" "node"
"tolerance" 1.00000e-09
)
"U" COMPLEX DOUBLE PROP(
"units" ""
"key" "node"
"tolerance" 1.00000e-06
)
"V/Sec" COMPLEX DOUBLE PROP(
"units" "V/s"
"key" "node"
"tolerance" 0.000100000
)
"I/Sec" COMPLEX DOUBLE PROP(
"units" "A/s"
"key" "node"
"tolerance" 1.00000e-06
)
"1/Sec" COMPLEX DOUBLE PROP(
"units" "1/s"
"key" "node"
"tolerance" 0.000100000
)
"HOD" COMPLEX DOUBLE PROP(
"units" ""
"key" "node"
"tolerance" 0.0100000
)
"Q" COMPLEX DOUBLE PROP(
"units" "Coul"
"key" "node"
"tolerance" 1.00000e-15
)
SWEEP
"freq" "sweep" PROP(
"sweep_direction" 0
"units" "Hz"
"plot" 0
"grid" 3
)
TRACE
"1" "V"
"2" "V"
"L1.7" "V"
"L1.8" "V"
"L1.9" "V"
"L1.3" "V"
"L1.4" "V"
"L1.5" "V"
"L1.6" "V"
"L2:1" "I"
"L1.L0:1" "I"
"L1.L1:1" "I"
"L1.L2:1" "I"
"L1.L3:1" "I"
"L1.L4:1" "I"
"L1.L5:1" "I"
VALUE
"freq" 1.000000000000000e+02
"1" (-0.0360000 -0.000282743)
"2" (-0.0359976 -0.000277830)
"L1.7" (-7.50140e-10 -0.000282743)
"L1.8" (6.25984e-19 2.36640e-14)
"L1.9" (1.87335e-11 -5.09426e-17)
"L1.3" (-7.50140e-10 -0.000113097)
"L1.4" (-1.09932e-10 -6.91150e-05)
"L1.5" (-4.31701e-09 -0.000113097)
"L1.6" (-4.59714e-10 -6.91150e-05)
"L2:1" (-0.999933 5.17555e-07)
"L1.L0:1" (-1.00000 1.84289e-17)
"L1.L1:1" (-1.00000 1.45560e-05)
"L1.L2:1" (-1.00000 1.59056e-06)
"L1.L3:1" (-1.39234e-09 -1.45560e-05)
"L1.L4:1" (-1.05795e-11 -1.59056e-06)
"L1.L5:1" (-1.88312e-12 4.98142e-17)
"freq" 1.023292992280754e+02
"1" (-0.0360000 -0.000289329)
"2" (-0.0359976 -0.000284302)
"L1.7" (-7.85493e-10 -0.000289329)
"L1.8" (6.86378e-19 2.53564e-14)
"L1.9" (1.96164e-11 -5.45860e-17)
"L1.3" (-7.85493e-10 -0.000115732)
"L1.4" (-1.15113e-10 -7.07249e-05)
"L1.5" (-4.52047e-09 -0.000115732)
"L1.6" (-4.81380e-10 -7.07249e-05)
"L2:1" (-0.999933 5.29610e-07)
"L1.L0:1" (-1.00000 1.97469e-17)
"L1.L1:1" (-1.00000 1.48951e-05)
"L1.L2:1" (-1.00000 1.62761e-06)
"L1.L3:1" (-1.45796e-09 -1.48951e-05)
"L1.L4:1" (-1.10781e-11 -1.62761e-06)
"L1.L5:1" (-1.97187e-12 5.33769e-17)
"freq" 1.047128548050899e+02
"1" (-0.0360000 -0.000296069)
"2" (-0.0359976 -0.000290924)
"L1.7" (-8.22512e-10 -0.000296069)
"L1.8" (7.52598e-19 2.71699e-14)
"L1.9" (2.05409e-11 -5.84899e-17)
"L1.3" (-8.22512e-10 -0.000118427)
"L1.4" (-1.20538e-10 -7.23723e-05)
"L1.5" (-4.73351e-09 -0.000118427)
"L1.6" (-5.04067e-10 -7.23723e-05)
"L2:1" (-0.999933 5.41946e-07)
"L1.L0:1" (-1.00000 2.11592e-17)
"L1.L1:1" (-1.00000 1.52420e-05)
"L1.L2:1" (-1.00000 1.66552e-06)
"L1.L3:1" (-1.52667e-09 -1.52420e-05)
"L1.L4:1" (-1.16002e-11 -1.66552e-06)
"L1.L5:1" (-2.06480e-12 5.71944e-17)
"freq" 1.071519305237606e+02
"1" (-0.0360000 -0.000302965)
"2" (-0.0359976 -0.000297701)
"L1.7" (-8.61276e-10 -0.000302965)
"L1.8" (8.25208e-19 2.91131e-14)
"L1.9" (2.15089e-11 -6.26731e-17)
"L1.3" (-8.61276e-10 -0.000121186)
"L1.4" (-1.26218e-10 -7.40581e-05)
"L1.5" (-4.95659e-09 -0.000121186)
"L1.6" (-5.27823e-10 -7.40581e-05)
"L2:1" (-0.999933 5.54570e-07)
"L1.L0:1" (-1.00000 2.26725e-17)
"L1.L1:1" (-1.00000 1.55971e-05)
"L1.L2:1" (-1.00000 1.70432e-06)
"L1.L3:1" (-1.59862e-09 -1.55971e-05)
"L1.L4:1" (-1.21469e-11 -1.70432e-06)
"L1.L5:1" (-2.16211e-12 6.12849e-17)
"freq" 1.096478196143185e+02
"1" (-0.0360000 -0.000310022)
"2" (-0.0359976 -0.000304635)
"L1.7" (-9.01866e-10 -0.000310022)
"L1.8" (9.04822e-19 3.11952e-14)
"L1.9" (2.25226e-11 -6.71554e-17)
"L1.3" (-9.01866e-10 -0.000124009)
"L1.4" (-1.32167e-10 -7.57831e-05)
"L1.5" (-5.19019e-09 -0.000124009)
"L1.6" (-5.52698e-10 -7.57831e-05)
"L2:1" (-0.999933 5.67487e-07)
"L1.L0:1" (-1.00000 2.42940e-17)
"L1.L1:1" (-1.00000 1.59604e-05)
"L1.L2:1" (-1.00000 1.74402e-06)
"L1.L3:1" (-1.67396e-09 -1.59604e-05)
"L1.L4:1" (-1.27194e-11 -1.74402e-06)
"L1.L5:1" (-2.26401e-12 6.56679e-17)
"freq" 1.122018454301963e+02
"1" (-0.0360000 -0.000317243)
"2" (-0.0359976 -0.000311731)
"L1.7" (-9.44370e-10 -0.000317243)
"L1.8" (9.92118e-19 3.34263e-14)
"L1.9" (2.35841e-11 -7.19584e-17)
"L1.3" (-9.44370e-10 -0.000126897)
"L1.4" (-1.38396e-10 -7.75483e-05)
"L1.5" (-5.43480e-09 -0.000126897)
"L1.6" (-5.78746e-10 -7.75483e-05)
"L2:1" (-0.999933 5.80706e-07)
"L1.L0:1" (-1.00000 2.60315e-17)
"L1.L1:1" (-1.00000 1.63321e-05)
"L1.L2:1" (-1.00000 1.78464e-06)
"L1.L3:1" (-1.75286e-09 -1.63321e-05)
"L1.L4:1" (-1.33188e-11 -1.78464e-06)
"L1.L5:1" (-2.37071e-12 7.03645e-17)
"freq" 1.148153621496882e+02
"1" (-0.0360000 -0.000324633)
"2" (-0.0359976 -0.000318992)
"L1.7" (-9.88877e-10 -0.000324633)
"L1.8" (1.08784e-18 3.58169e-14)
"L1.9" (2.46956e-11 -7.71048e-17)
"L1.3" (-9.88877e-10 -0.000129853)
"L1.4" (-1.44918e-10 -7.93547e-05)
"L1.5" (-5.69093e-09 -0.000129853)
"L1.6" (-6.06021e-10 -7.93547e-05)
"L2:1" (-0.999933 5.94232e-07)
"L1.L0:1" (-1.00000 2.78932e-17)
"L1.L1:1" (-1.00000 1.67126e-05)
"L1.L2:1" (-1.00000 1.82621e-06)
"L1.L3:1" (-1.83547e-09 -1.67126e-05)
"L1.L4:1" (-1.39465e-11 -1.82621e-06)
"L1.L5:1" (-2.48244e-12 7.53969e-17)
"freq" 1.174897554939529e+02
"1" (-0.0360000 -0.000332194)
"2" (-0.0359976 -0.000326422)
"L1.7" (-1.03548e-09 -0.000332194)
"L1.8" (1.19279e-18 3.83785e-14)
"L1.9" (2.58594e-11 -8.26192e-17)
"L1.3" (-1.03548e-09 -0.000132878)
"L1.4" (-1.51748e-10 -8.12031e-05)
"L1.5" (-5.95914e-09 -0.000132878)
"L1.6" (-6.34582e-10 -8.12031e-05)
"L2:1" (-0.999933 6.08074e-07)
"L1.L0:1" (-1.00000 2.98881e-17)
"L1.L1:1" (-1.00000 1.71019e-05)
"L1.L2:1" (-1.00000 1.86875e-06)
"L1.L3:1" (-1.92197e-09 -1.71019e-05)
"L1.L4:1" (-1.46038e-11 -1.86875e-06)
"L1.L5:1" (-2.59943e-12 8.07892e-17)
"freq" 1.202264434617412e+02
"1" (-0.0360000 -0.000339932)
"2" (-0.0359976 -0.000334026)
"L1.7" (-1.08428e-09 -0.000339932)
"L1.8" (1.30787e-18 4.11233e-14)
"L1.9" (2.70781e-11 -8.85281e-17)
"L1.3" (-1.08428e-09 -0.000135973)
"L1.4" (-1.58900e-10 -8.30946e-05)
"L1.5" (-6.23998e-09 -0.000135973)
"L1.6" (-6.64489e-10 -8.30946e-05)
"L2:1" (-0.999933 6.22238e-07)
"L1.L0:1" (-1.00000 3.20257e-17)
"L1.L1:1" (-1.00000 1.75002e-05)
"L1.L2:1" (-1.00000 1.91227e-06)
"L1.L3:1" (-2.01255e-09 -1.75002e-05)
"L1.L4:1" (-1.52920e-11 -1.91227e-06)
"L1.L5:1" (-2.72194e-12 8.65672e-17)
"freq" 1.230268770812381e+02
"1" (-0.0360000 -0.000347850)
"2" (-0.0359976 -0.000341806)
"L1.7" (-1.13538e-09 -0.000347850)
"L1.8" (1.43405e-18 4.40644e-14)
"L1.9" (2.83543e-11 -9.48596e-17)
"L1.3" (-1.13538e-09 -0.000139140)
"L1.4" (-1.66388e-10 -8.50301e-05)
"L1.5" (-6.53406e-09 -0.000139140)
"L1.6" (-6.95806e-10 -8.50301e-05)
"L2:1" (-0.999933 6.36731e-07)
"L1.L0:1" (-1.00000 3.55520e-17)
"L1.L1:1" (-1.00000 1.79078e-05)
"L1.L2:1" (-1.00000 1.95682e-06)
"L1.L3:1" (-2.10740e-09 -1.79078e-05)
"L1.L4:1" (-1.60127e-11 -1.95682e-06)
"L1.L5:1" (-2.85022e-12 9.27584e-17)
"freq" 1.258925411794167e+02
"1" (-0.0360000 -0.000355953)
"2" (-0.0359976 -0.000349768)
"L1.7" (-1.18889e-09 -0.000355953)
"L1.8" (1.57240e-18 4.72159e-14)
"L1.9" (2.96906e-11 -1.01644e-16)
"L1.3" (-1.18889e-09 -0.000142381)
"L1.4" (-1.74230e-10 -8.70107e-05)
"L1.5" (-6.84201e-09 -0.000142381)
"L1.6" (-7.28598e-10 -8.70107e-05)
"L2:1" (-0.999933 6.51563e-07)
"L1.L0:1" (-1.00000 3.80350e-17)
"L1.L1:1" (-1.00000 1.83250e-05)
"L1.L2:1" (-1.00000 2.00240e-06)
"L1.L3:1" (-2.20672e-09 -1.83250e-05)
"L1.L4:1" (-1.67674e-11 -2.00240e-06)
"L1.L5:1" (-2.98454e-12 9.93924e-17)
"freq" 1.288249551693133e+02
"1" (-0.0360000 -0.000364244)
"2" (-0.0359976 -0.000357915)
"L1.7" (-1.24492e-09 -0.000364244)
"L1.8" (1.72410e-18 5.05927e-14)
"L1.9" (3.10899e-11 -1.08913e-16)
"L1.3" (-1.24492e-09 -0.000145698)
"L1.4" (-1.82441e-10 -8.90374e-05)
"L1.5" (-7.16446e-09 -0.000145698)
"L1.6" (-7.62936e-10 -8.90374e-05)
"L2:1" (-0.999933 6.66740e-07)
"L1.L0:1" (-1.00000 4.06943e-17)
"L1.L1:1" (-1.00000 1.87518e-05)
"L1.L2:1" (-1.00000 2.04904e-06)
"L1.L3:1" (-2.31071e-09 -1.87518e-05)
"L1.L4:1" (-1.75576e-11 -2.04904e-06)
"L1.L5:1" (-3.12520e-12 1.06501e-16)
"freq" 1.318256738556406e+02
"1" (-0.0360000 -0.000372728)
"2" (-0.0359976 -0.000366252)
"L1.7" (-1.30359e-09 -0.000372728)
"L1.8" (1.89044e-18 5.42111e-14)
"L1.9" (3.25551e-11 -1.16703e-16)
"L1.3" (-1.30359e-09 -0.000149091)
"L1.4" (-1.91039e-10 -9.11114e-05)
"L1.5" (-7.50211e-09 -0.000149091)
"L1.6" (-7.98892e-10 -9.11114e-05)
"L2:1" (-0.999933 6.82270e-07)
"L1.L0:1" (-1.00000 4.35423e-17)
"L1.L1:1" (-1.00000 1.91886e-05)
"L1.L2:1" (-1.00000 2.09677e-06)
"L1.L3:1" (-2.41962e-09 -1.91886e-05)
"L1.L4:1" (-1.83851e-11 -2.09677e-06)
"L1.L5:1" (-3.27249e-12 1.14118e-16)
"freq" 1.348962882591653e+02
"1" (-0.0360000 -0.000381410)
"2" (-0.0359976 -0.000374783)
"L1.7" (-1.36503e-09 -0.000381410)
"L1.8" (2.07283e-18 5.80882e-14)
"L1.9" (3.40894e-11 -1.25049e-16)
"L1.3" (-1.36503e-09 -0.000152564)
"L1.4" (-2.00043e-10 -9.32336e-05)
"L1.5" (-7.85567e-09 -0.000152564)
"L1.6" (-8.36542e-10 -9.32336e-05)
"L2:1" (-0.999933 6.98162e-07)
"L1.L0:1" (-1.00000 4.65926e-17)
"L1.L1:1" (-1.00000 1.96356e-05)
"L1.L2:1" (-1.00000 2.14561e-06)
"L1.L3:1" (-2.53365e-09 -1.96356e-05)
"L1.L4:1" (-1.92515e-11 -2.14561e-06)
"L1.L5:1" (-3.42672e-12 1.22279e-16)
"freq" 1.380384264602884e+02
"1" (-0.0360000 -0.000390294)
"2" (-0.0359976 -0.000383513)
"L1.7" (-1.42936e-09 -0.000390294)
"L1.8" (2.27281e-18 6.22426e-14)
"L1.9" (3.56959e-11 -1.33993e-16)
"L1.3" (-1.42936e-09 -0.000156118)
"L1.4" (-2.09470e-10 -9.54053e-05)
"L1.5" (-8.22590e-09 -0.000156118)
"L1.6" (-8.75967e-10 -9.54053e-05)
"L2:1" (-0.999933 7.14424e-07)
"L1.L0:1" (-1.00000 4.98595e-17)
"L1.L1:1" (-1.00000 2.00929e-05)
"L1.L2:1" (-1.00000 2.19559e-06)
"L1.L3:1" (-2.65306e-09 -2.00929e-05)
"L1.L4:1" (-2.01588e-11 -2.19559e-06)
"L1.L5:1" (-3.58821e-12 1.31025e-16)
"freq" 1.412537544622753e+02
"1" (-0.0360000 -0.000399386)
"2" (-0.0359976 -0.000392446)
"L1.7" (-1.49673e-09 -0.000399386)
"L1.8" (2.49209e-18 6.66942e-14)
"L1.9" (3.73782e-11 -1.43576e-16)
"L1.3" (-1.49673e-09 -0.000159754)
"L1.4" (-2.19343e-10 -9.76276e-05)
"L1.5" (-8.61357e-09 -0.000159754)
"L1.6" (-9.17251e-10 -9.76276e-05)
"L2:1" (-0.999933 7.31065e-07)
"L1.L0:1" (-1.00000 5.33585e-17)
"L1.L1:1" (-1.00000 2.05610e-05)
"L1.L2:1" (-1.00000 2.24673e-06)
"L1.L3:1" (-2.77809e-09 -2.05610e-05)
"L1.L4:1" (-2.11089e-11 -2.24673e-06)
"L1.L5:1" (-3.75732e-12 1.40396e-16)
"freq" 1.445439770745926e+02
"1" (-0.0360000 -0.000408688)
"2" (-0.0359976 -0.000401587)
"L1.7" (-1.56726e-09 -0.000408688)
"L1.8" (2.73252e-18 7.14641e-14)
"L1.9" (3.91398e-11 -1.53844e-16)
"L1.3" (-1.56726e-09 -0.000163475)
"L1.4" (-2.29680e-10 -9.99016e-05)
"L1.5" (-9.01952e-09 -0.000163475)
"L1.6" (-9.60479e-10 -9.99016e-05)
"L2:1" (-0.999933 7.48094e-07)
"L1.L0:1" (-1.00000 5.71063e-17)
"L1.L1:1" (-1.00000 2.10399e-05)
"L1.L2:1" (-1.00000 2.29906e-06)
"L1.L3:1" (-2.90902e-09 -2.10399e-05)
"L1.L4:1" (-2.21037e-11 -2.29906e-06)
"L1.L5:1" (-3.93440e-12 1.50437e-16)
"freq" 1.479108388168206e+02
"1" (-0.0360000 -0.000418208)
"2" (-0.0359976 -0.000410941)
"L1.7" (-1.64113e-09 -0.000418208)
"L1.8" (2.99615e-18 7.65752e-14)
"L1.9" (4.09844e-11 -1.64847e-16)
"L1.3" (-1.64113e-09 -0.000167283)
"L1.4" (-2.40504e-10 -0.000102229)
"L1.5" (-9.44460e-09 -0.000167283)
"L1.6" (-1.00575e-09 -0.000102229)
"L2:1" (-0.999933 7.65519e-07)
"L1.L0:1" (-1.00000 6.11204e-17)
"L1.L1:1" (-1.00000 2.15300e-05)
"L1.L2:1" (-1.00000 2.35261e-06)
"L1.L3:1" (-3.04612e-09 -2.15300e-05)
"L1.L4:1" (-2.31455e-11 -2.35261e-06)
"L1.L5:1" (-4.11982e-12 1.61196e-16)
"freq" 1.513561248436207e+02
"1" (-0.0360000 -0.000427949)
"2" (-0.0359976 -0.000420513)
"L1.7" (-1.71847e-09 -0.000427949)
"L1.8" (3.28521e-18 8.20518e-14)
"L1.9" (4.29160e-11 -1.76637e-16)
"L1.3" (-1.71847e-09 -0.000171180)
"L1.4" (-2.51839e-10 -0.000104610)
"L1.5" (-9.88971e-09 -0.000171180)
"L1.6" (-1.05314e-09 -0.000104610)
"L2:1" (-0.999933 7.83351e-07)
"L1.L0:1" (-1.00000 6.54201e-17)
"L1.L1:1" (-1.00000 2.20315e-05)
"L1.L2:1" (-1.00000 2.40741e-06)
"L1.L3:1" (-3.18967e-09 -2.20315e-05)
"L1.L4:1" (-2.42363e-11 -2.40741e-06)
"L1.L5:1" (-4.31398e-12 1.72724e-16)
"freq" 1.548816618912480e+02
"1" (-0.0360000 -0.000437918)
"2" (-0.0359976 -0.000430308)
"L1.7" (-1.79946e-09 -0.000437918)
"L1.8" (3.60216e-18 8.79201e-14)
"L1.9" (4.49385e-11 -1.89270e-16)
"L1.3" (-1.79946e-09 -0.000175167)
"L1.4" (-2.63708e-10 -0.000107047)
"L1.5" (-1.03558e-08 -0.000175167)
"L1.6" (-1.10278e-09 -0.000107047)
"L2:1" (-0.999933 8.01597e-07)
"L1.L0:1" (-1.00000 7.00256e-17)
"L1.L1:1" (-1.00000 2.25446e-05)
"L1.L2:1" (-1.00000 2.46349e-06)
"L1.L3:1" (-3.34000e-09 -2.25446e-05)
"L1.L4:1" (-2.53785e-11 -2.46349e-06)
"L1.L5:1" (-4.51729e-12 1.85077e-16)
"freq" 1.584893192461112e+02
"1" (-0.0360000 -0.000448118)
"2" (-0.0359976 -0.000440331)
"L1.7" (-1.88427e-09 -0.000448118)
"L1.8" (3.94969e-18 9.42080e-14)
"L1.9" (4.70564e-11 -2.02806e-16)
"L1.3" (-1.88427e-09 -0.000179247)
"L1.4" (-2.76136e-10 -0.000109540)
"L1.5" (-1.08438e-08 -0.000179247)
"L1.6" (-1.15475e-09 -0.000109540)
"L2:1" (-0.999933 8.20269e-07)
"L1.L0:1" (-1.00000 7.49587e-17)
"L1.L1:1" (-1.00000 2.30698e-05)
"L1.L2:1" (-1.00000 2.52087e-06)
"L1.L3:1" (-3.49741e-09 -2.30698e-05)
"L1.L4:1" (-2.65745e-11 -2.52087e-06)
"L1.L5:1" (-4.73018e-12 1.98314e-16)
"freq" 1.621810097358928e+02
"1" (-0.0360000 -0.000458556)
"2" (-0.0359976 -0.000450588)
"L1.7" (-1.97307e-09 -0.000458556)
"L1.8" (4.33075e-18 1.00946e-13)
"L1.9" (4.92741e-11 -2.17311e-16)
"L1.3" (-1.97307e-09 -0.000183422)
"L1.4" (-2.89150e-10 -0.000112091)
"L1.5" (-1.13549e-08 -0.000183422)
"L1.6" (-1.20917e-09 -0.000112091)
"L2:1" (-0.999933 8.39375e-07)
"L1.L0:1" (-1.00000 8.02429e-17)
"L1.L1:1" (-1.00000 2.36071e-05)
"L1.L2:1" (-1.00000 2.57959e-06)
"L1.L3:1" (-3.66224e-09 -2.36071e-05)
"L1.L4:1" (-2.78270e-11 -2.57959e-06)
"L1.L5:1" (-4.95311e-12 2.12497e-16)
"freq" 1.659586907437559e+02
"1" (-0.0360000 -0.000469237)
"2" (-0.0359976 -0.000461084)
"L1.7" (-2.06606e-09 -0.000469237)
"L1.8" (4.74857e-18 1.08165e-13)
"L1.9" (5.15963e-11 -2.32853e-16)
"L1.3" (-2.06606e-09 -0.000187695)
"L1.4" (-3.02777e-10 -0.000114702)
"L1.5" (-1.18900e-08 -0.000187695)
"L1.6" (-1.26616e-09 -0.000114702)
"L2:1" (-0.999933 8.58927e-07)
"L1.L0:1" (-1.00000 8.59033e-17)
"L1.L1:1" (-1.00000 2.41570e-05)
"L1.L2:1" (-1.00000 2.63967e-06)
"L1.L3:1" (-3.83483e-09 -2.41570e-05)
"L1.L4:1" (-2.91384e-11 -2.63967e-06)
"L1.L5:1" (-5.18654e-12 2.27695e-16)
"freq" 1.698243652461743e+02
"1" (-0.0360000 -0.000480167)
"2" (-0.0359976 -0.000471824)
"L1.7" (-2.16343e-09 -0.000480167)
"L1.8" (5.20671e-18 1.15901e-13)
"L1.9" (5.40280e-11 -2.49506e-16)
"L1.3" (-2.16343e-09 -0.000192067)
"L1.4" (-3.17046e-10 -0.000117374)
"L1.5" (-1.24504e-08 -0.000192067)
"L1.6" (-1.32583e-09 -0.000117374)
"L2:1" (-0.999933 8.78934e-07)
"L1.L0:1" (-1.00000 9.19666e-17)
"L1.L1:1" (-1.00000 2.47197e-05)
"L1.L2:1" (-1.00000 2.70116e-06)
"L1.L3:1" (-4.01556e-09 -2.47197e-05)
"L1.L4:1" (-3.05116e-11 -2.70116e-06)
"L1.L5:1" (-5.43098e-12 2.43980e-16)
"freq" 1.737800828749374e+02
"1" (-0.0360000 -0.000491352)
"2" (-0.0359976 -0.000482814)
"L1.7" (-2.26539e-09 -0.000491352)
"L1.8" (5.70904e-18 1.24190e-13)
"L1.9" (5.65743e-11 -2.67351e-16)
"L1.3" (-2.26539e-09 -0.000196541)
"L1.4" (-3.31988e-10 -0.000120108)
"L1.5" (-1.30372e-08 -0.000196541)
"L1.6" (-1.38831e-09 -0.000120108)
"L2:1" (-0.999933 8.99407e-07)
"L1.L0:1" (-1.00000 9.84617e-17)
"L1.L1:1" (-1.00000 2.52955e-05)
"L1.L2:1" (-1.00000 2.76408e-06)
"L1.L3:1" (-4.20481e-09 -2.52955e-05)
"L1.L4:1" (-3.19496e-11 -2.76408e-06)
"L1.L5:1" (-5.68693e-12 2.61429e-16)
"freq" 1.778279410038921e+02
"1" (-0.0360000 -0.000502797)
"2" (-0.0359976 -0.000494060)
"L1.7" (-2.37215e-09 -0.000502797)
"L1.8" (6.25984e-18 1.33072e-13)
"L1.9" (5.92405e-11 -2.86471e-16)
"L1.3" (-2.37215e-09 -0.000201119)
"L1.4" (-3.47634e-10 -0.000122906)
"L1.5" (-1.36516e-08 -0.000201119)
"L1.6" (-1.45374e-09 -0.000122906)
"L2:1" (-0.999933 9.20357e-07)
"L1.L0:1" (-1.00000 1.05419e-16)
"L1.L1:1" (-1.00000 2.58847e-05)
"L1.L2:1" (-1.00000 2.82846e-06)
"L1.L3:1" (-4.40298e-09 -2.58847e-05)
"L1.L4:1" (-3.34554e-11 -2.82846e-06)
"L1.L5:1" (-5.95495e-12 2.80126e-16)
"freq" 1.819700858609981e+02
"1" (-0.0360000 -0.000514508)
"2" (-0.0359976 -0.000505568)
"L1.7" (-2.48395e-09 -0.000514508)
"L1.8" (6.86378e-18 1.42590e-13)
"L1.9" (6.20324e-11 -3.06960e-16)
"L1.3" (-2.48395e-09 -0.000205803)
"L1.4" (-3.64018e-10 -0.000125769)
"L1.5" (-1.42950e-08 -0.000205803)
"L1.6" (-1.52226e-09 -0.000125769)
"L2:1" (-0.999933 9.41795e-07)
"L1.L0:1" (-1.00000 1.12873e-16)
"L1.L1:1" (-1.00000 2.64876e-05)
"L1.L2:1" (-1.00000 2.89434e-06)
"L1.L3:1" (-4.61048e-09 -2.64876e-05)
"L1.L4:1" (-3.50321e-11 -2.89434e-06)
"L1.L5:1" (-6.23560e-12 3.00160e-16)
"freq" 1.862087136662865e+02
"1" (-0.0360000 -0.000526493)
"2" (-0.0359976 -0.000517344)
"L1.7" (-2.60101e-09 -0.000526493)
"L1.8" (7.52598e-18 1.52788e-13)
"L1.9" (6.49559e-11 -3.28913e-16)
"L1.3" (-2.60101e-09 -0.000210597)
"L1.4" (-3.81174e-10 -0.000128698)
"L1.5" (-1.49687e-08 -0.000210597)
"L1.6" (-1.59400e-09 -0.000128698)
"L2:1" (-0.999933 9.63732e-07)
"L1.L0:1" (-1.00000 1.20857e-16)
"L1.L1:1" (-1.00000 2.71046e-05)
"L1.L2:1" (-1.00000 2.96176e-06)
"L1.L3:1" (-4.82777e-09 -2.71046e-05)
"L1.L4:1" (-3.66831e-11 -2.96176e-06)
"L1.L5:1" (-6.52947e-12 3.21628e-16)
"freq" 1.905460717963245e+02
"1" (-0.0360000 -0.000538756)
"2" (-0.0359976 -0.000529395)
"L1.7" (-2.72359e-09 -0.000538756)
"L1.8" (8.25208e-18 1.63715e-13)
"L1.9" (6.80172e-11 -3.52437e-16)
"L1.3" (-2.72359e-09 -0.000215503)
"L1.4" (-3.99138e-10 -0.000131696)
"L1.5" (-1.56741e-08 -0.000215503)
"L1.6" (-1.66912e-09 -0.000131696)
"L2:1" (-0.999933 9.86180e-07)
"L1.L0:1" (-1.00000 1.29411e-16)
"L1.L1:1" (-1.00000 2.77360e-05)
"L1.L2:1" (-1.00000 3.03075e-06)
"L1.L3:1" (-5.05529e-09 -2.77360e-05)
"L1.L4:1" (-3.84119e-11 -3.03075e-06)
"L1.L5:1" (-6.83720e-12 3.44630e-16)
"freq" 1.949844599758043e+02
"1" (-0.0360000 -0.000551306)
"2" (-0.0359976 -0.000541726)
"L1.7" (-2.85195e-09 -0.000551306)
"L1.8" (9.04822e-18 1.75424e-13)
"L1.9" (7.12228e-11 -3.77643e-16)
"L1.3" (-2.85195e-09 -0.000220522)
"L1.4" (-4.17949e-10 -0.000134764)
"L1.5" (-1.64128e-08 -0.000220522)
"L1.6" (-1.74778e-09 -0.000134764)
"L2:1" (-0.999933 1.00915e-06)
"L1.L0:1" (-1.00000 1.38574e-16)
"L1.L1:1" (-1.00000 2.83820e-05)
"L1.L2:1" (-1.00000 3.10135e-06)
"L1.L3:1" (-5.29354e-09 -2.83820e-05)
"L1.L4:1" (-4.02222e-11 -3.10135e-06)
"L1.L5:1" (-7.15942e-12 3.69278e-16)
"freq" 1.995262314968877e+02
"1" (-0.0360000 -0.000564147)
"2" (-0.0359976 -0.000554344)
"L1.7" (-2.98636e-09 -0.000564147)
"L1.8" (9.92118e-18 1.87970e-13)
"L1.9" (7.45794e-11 -4.04652e-16)
"L1.3" (-2.98636e-09 -0.000225659)
"L1.4" (-4.37646e-10 -0.000137903)
"L1.5" (-1.71863e-08 -0.000225659)
"L1.6" (-1.83016e-09 -0.000137903)
"L2:1" (-0.999933 1.03266e-06)
"L1.L0:1" (-1.00000 1.48390e-16)
"L1.L1:1" (-1.00000 2.90431e-05)
"L1.L2:1" (-1.00000 3.17359e-06)
"L1.L3:1" (-5.54302e-09 -2.90431e-05)
"L1.L4:1" (-4.21178e-11 -3.17359e-06)
"L1.L5:1" (-7.49684e-12 3.95688e-16)
"freq" 2.041737944669526e+02
"1" (-0.0360000 -0.000577288)
"2" (-0.0359976 -0.000567257)
"L1.7" (-3.12710e-09 -0.000577288)
"L1.8" (1.08784e-17 2.01413e-13)
"L1.9" (7.80942e-11 -4.33592e-16)
"L1.3" (-3.12710e-09 -0.000230915)
"L1.4" (-4.58271e-10 -0.000141115)
"L1.5" (-1.79963e-08 -0.000230915)
"L1.6" (-1.91641e-09 -0.000141115)
"L2:1" (-0.999933 1.05671e-06)
"L1.L0:1" (-1.00000 1.58906e-16)
"L1.L1:1" (-1.00000 2.97196e-05)
"L1.L2:1" (-1.00000 3.24751e-06)
"L1.L3:1" (-5.80425e-09 -2.97196e-05)
"L1.L4:1" (-4.41027e-11 -3.24751e-06)
